T2B6C 050:152.203   SEGGER J-Link V6.88c Log File
T2B6C 050:152.281   DLL Compiled: Dec  4 2020 18:05:56
T2B6C 050:152.299   Logging started @ 2021-01-20 03:22
T2B6C 050:152.316 - 768.417ms
T2B6C 050:152.337 JLINK_SetWarnOutHandler(...)
T2B6C 050:152.353 - 0.024ms
T2B6C 050:152.371 JLINK_OpenEx(...)
T2B6C 050:153.860   Firmware: J-Link V9 compiled Dec 13 2019 11:14:50
T2B6C 050:154.034   Decompressing FW timestamp took 131 us
T2B6C 050:161.991   Hardware: V9.20
T2B6C 050:162.018   S/N: 4294967295
T2B6C 050:162.037   OEM: SEGGER
T2B6C 050:162.054   Feature(s): RDI, FlashBP, FlashDL, JFlash, GDB
T2B6C 050:163.753   TELNET listener socket opened on port 19021
T2B6C 050:167.698   Device "CORTEX-M0" selected.
T2B6C 050:169.834   WEBSRV Starting webserver
T2B6C 050:170.021   WEBSRV Webserver running on local port 19080
T2B6C 050:170.052 - 17.690ms returns "O.K."
T2B6C 050:170.083 JLINK_GetEmuCaps()
T2B6C 050:170.102 - 0.026ms returns 0xB9FF7BBF
T2B6C 050:170.123 JLINK_TIF_GetAvailable(...)
T2B6C 050:170.504 - 0.393ms
T2B6C 050:171.009 JLINK_SetErrorOutHandler(...)
T2B6C 050:171.027 - 0.023ms
T2B6C 050:171.044 JLINK_ExecCommand("ProjectFile = "C:\Users\xueji\Desktop\LIB\SWM190_Lib-201225\SWM190_Lib\PWM\SimplPWM\JLinkSettings.ini"", ...). 
T2B6C 050:171.877   Device "CORTEX-M0" selected.
T2B6C 050:172.347 - 1.312ms returns 0x00
T2B6C 050:172.374 JLINK_ExecCommand("Device = SWM190xB", ...). 
T2B6C 050:172.528   Device "CORTEX-M0" selected.
T2B6C 050:173.083 - 0.706ms returns 0x00
T2B6C 050:173.117 JLINK_GetHardwareVersion()
T2B6C 050:173.135 - 0.027ms returns 92000
T2B6C 050:173.157 JLINK_GetDLLVersion()
T2B6C 050:173.175 - 0.025ms returns 68803
T2B6C 050:173.193 JLINK_GetOEMString(...)
T2B6C 050:173.211 JLINK_GetFirmwareString(...)
T2B6C 050:173.227 - 0.024ms
T2B6C 050:173.259 JLINK_GetDLLVersion()
T2B6C 050:173.277 - 0.026ms returns 68803
T2B6C 050:173.296 JLINK_GetCompileDateTime()
T2B6C 050:173.313 - 0.025ms
T2B6C 050:173.336 JLINK_GetFirmwareString(...)
T2B6C 050:173.355 - 0.026ms
T2B6C 050:173.380 JLINK_GetHardwareVersion()
T2B6C 050:173.397 - 0.026ms returns 92000
T2B6C 050:173.421 JLINK_GetSN()
T2B6C 050:173.439 - 0.026ms returns -1
T2B6C 050:173.456 JLINK_GetOEMString(...)
T2B6C 050:173.485 JLINK_TIF_Select(JLINKARM_TIF_SWD)
T2B6C 050:174.840 - 1.374ms returns 0x00
T2B6C 050:174.877 JLINK_HasError()
T2B6C 050:174.896 JLINK_SetSpeed(5000)
T2B6C 050:175.180 - 0.299ms
T2B6C 050:175.210 JLINK_GetId()
T2B6C 050:176.456   Found SW-DP with ID 0x0BB11477
T2B6C 050:179.437   Old FW that does not support reading DPIDR via DAP jobs
T2B6C 050:180.304   DPv0 detected
T2B6C 050:180.345   Scanning AP map to find all available APs
T2B6C 050:181.329   AP[1]: Stopped AP scan as end of AP map has been reached
T2B6C 050:181.357   AP[0]: AHB-AP (IDR: 0x04770021)
T2B6C 050:181.388   Iterating through AP map to find AHB-AP to use
T2B6C 050:182.530   AP[0]: Core found
T2B6C 050:182.559   AP[0]: AHB-AP ROM base: 0xE00FF000
T2B6C 050:183.243   CPUID register: 0x410CC200. Implementer code: 0x41 (ARM)
T2B6C 050:183.279   Found Cortex-M0 r0p0, Little endian.
T2B6C 050:284.712   -- Max. mem block: 0x00010DD0
T2B6C 050:285.110   CPU_ReadMem(4 bytes @ 0xE000EDF0)
T2B6C 050:285.722   CPU_WriteMem(4 bytes @ 0xE000EDF0)
T2B6C 050:286.250   CPU_ReadMem(4 bytes @ 0xE0002000)
T2B6C 050:286.758   FPUnit: 4 code (BP) slots and 0 literal slots
T2B6C 050:286.776   CPU_ReadMem(4 bytes @ 0xE000EDFC)
T2B6C 050:287.371   CPU_WriteMem(4 bytes @ 0xE000EDFC)
T2B6C 050:287.863   CPU_ReadMem(4 bytes @ 0xE0001000)
T2B6C 050:288.348   CPU_WriteMem(4 bytes @ 0xE0001000)
T2B6C 050:288.849   CoreSight components:
T2B6C 050:288.870   ROMTbl[0] @ E00FF000
T2B6C 050:288.887   CPU_ReadMem(64 bytes @ 0xE00FF000)
T2B6C 050:289.646   CPU_ReadMem(32 bytes @ 0xE000EFE0)
T2B6C 050:290.279   ROMTbl[0][0]: E000E000, CID: B105E00D, PID: 000BB008 SCS
T2B6C 050:290.298   CPU_ReadMem(32 bytes @ 0xE0001FE0)
T2B6C 050:290.902   ROMTbl[0][1]: E0001000, CID: B105E00D, PID: 000BB00A DWT
T2B6C 050:290.921   CPU_ReadMem(32 bytes @ 0xE0002FE0)
T2B6C 050:291.552   ROMTbl[0][2]: E0002000, CID: B105E00D, PID: 000BB00B FPB
T2B6C 050:291.991 - 116.787ms returns 0x0BB11477
T2B6C 050:292.009 JLINK_GetDLLVersion()
T2B6C 050:292.020 - 0.016ms returns 68803
T2B6C 050:292.059 JLINK_CORE_GetFound()
T2B6C 050:292.072 - 0.018ms returns 0x60000FF
T2B6C 050:292.086 JLINK_GetDebugInfo(0x100 = JLINKARM_ROM_TABLE_ADDR_INDEX)
T2B6C 050:292.098   Value=0xE00FF000
T2B6C 050:292.113 - 0.032ms returns 0
T2B6C 050:292.134 JLINK_GetDebugInfo(0x100 = JLINKARM_ROM_TABLE_ADDR_INDEX)
T2B6C 050:292.147   Value=0xE00FF000
T2B6C 050:292.165 - 0.036ms returns 0
T2B6C 050:292.178 JLINK_GetDebugInfo(0x101 = JLINKARM_DEBUG_INFO_ETM_ADDR_INDEX)
T2B6C 050:292.189   Value=0x00000000
T2B6C 050:292.204 - 0.031ms returns 0
T2B6C 050:292.217 JLINK_ReadMemEx(0xE0041FF0, 0x10 Bytes, Flags = 0x02000004)
T2B6C 050:292.232   CPU_ReadMem(16 bytes @ 0xE0041FF0)
T2B6C 050:292.742   Data:  00 00 00 00 00 00 00 00 00 00 00 00 00 00 00 00
T2B6C 050:292.759 - 0.546ms returns 16 (0x10)
T2B6C 050:292.771 JLINK_GetDebugInfo(0x102 = JLINKARM_DEBUG_INFO_MTB_ADDR_INDEX)
T2B6C 050:292.781   Value=0x00000000
T2B6C 050:292.796 - 0.030ms returns 0
T2B6C 050:292.807 JLINK_GetDebugInfo(0x103 = JLINKARM_DEBUG_INFO_TPIU_ADDR_INDEX)
T2B6C 050:292.817   Value=0x00000000
T2B6C 050:292.835 - 0.033ms returns 0
T2B6C 050:292.847 JLINK_ReadMemEx(0xE0040FF0, 0x10 Bytes, Flags = 0x02000004)
T2B6C 050:292.859   CPU_ReadMem(16 bytes @ 0xE0040FF0)
T2B6C 050:293.379   Data:  00 00 00 00 00 00 00 00 00 00 00 00 00 00 00 00
T2B6C 050:293.396 - 0.554ms returns 16 (0x10)
T2B6C 050:293.408 JLINK_GetDebugInfo(0x104 = JLINKARM_DEBUG_INFO_ITM_ADDR_INDEX)
T2B6C 050:293.418   Value=0xE0000000
T2B6C 050:293.433 - 0.030ms returns 0
T2B6C 050:293.444 JLINK_GetDebugInfo(0x105 = JLINKARM_DEBUG_INFO_DWT_ADDR_INDEX)
T2B6C 050:293.454   Value=0xE0001000
T2B6C 050:293.469 - 0.030ms returns 0
T2B6C 050:293.480 JLINK_GetDebugInfo(0x106 = JLINKARM_DEBUG_INFO_FPB_ADDR_INDEX)
T2B6C 050:293.490   Value=0xE0002000
T2B6C 050:293.505 - 0.030ms returns 0
T2B6C 050:293.516 JLINK_GetDebugInfo(0x107 = JLINKARM_DEBUG_INFO_NVIC_ADDR_INDEX)
T2B6C 050:293.526   Value=0xE000E000
T2B6C 050:293.541 - 0.030ms returns 0
T2B6C 050:293.552 JLINK_GetDebugInfo(0x10C = JLINKARM_DEBUG_INFO_DBG_ADDR_INDEX)
T2B6C 050:293.562   Value=0xE000EDF0
T2B6C 050:293.577 - 0.030ms returns 0
T2B6C 050:293.588 JLINK_GetDebugInfo(0x01 = Unknown)
T2B6C 050:293.598   Value=0x00000000
T2B6C 050:293.613 - 0.030ms returns 0
T2B6C 050:293.625 JLINK_ReadMemU32(0xE000ED00, 0x1 Items)
T2B6C 050:293.637   CPU_ReadMem(4 bytes @ 0xE000ED00)
T2B6C 050:294.091   Data:  00 C2 0C 41
T2B6C 050:294.109   Debug reg: CPUID
T2B6C 050:294.124 - 0.503ms returns 1 (0x1)
T2B6C 050:294.135 JLINK_GetDebugInfo(0x10F = JLINKARM_DEBUG_INFO_HAS_CORTEX_M_SECURITY_EXT_INDEX)
T2B6C 050:294.149   Value=0x00000000
T2B6C 050:294.164 - 0.034ms returns 0
T2B6C 050:294.176 JLINK_HasError()
T2B6C 050:294.191 JLINK_SetResetType(JLINKARM_CM3_RESET_TYPE_NORMAL)
T2B6C 050:294.203 - 0.017ms returns JLINKARM_CM3_RESET_TYPE_NORMAL
T2B6C 050:294.215 JLINK_Reset()
T2B6C 050:294.228   CPU is running
T2B6C 050:294.244   CPU_WriteMem(4 bytes @ 0xE000EDF0)
T2B6C 050:294.690   CPU is running
T2B6C 050:294.707   CPU_WriteMem(4 bytes @ 0xE000EDFC)
T2B6C 050:295.215   Reset: Halt core after reset via DEMCR.VC_CORERESET.
T2B6C 050:296.024   Reset: Reset device via AIRCR.SYSRESETREQ.
T2B6C 050:296.058   CPU is running
T2B6C 050:296.079   CPU_WriteMem(4 bytes @ 0xE000ED0C)
T2B6C 050:349.833   CPU_ReadMem(4 bytes @ 0xE000EDF0)
T2B6C 050:350.436   CPU_ReadMem(4 bytes @ 0xE000EDF0)
T2B6C 050:351.063   CPU is running
T2B6C 050:351.084   CPU_WriteMem(4 bytes @ 0xE000EDF0)
T2B6C 050:351.744   CPU is running
T2B6C 050:351.765   CPU_WriteMem(4 bytes @ 0xE000EDFC)
T2B6C 050:357.655   CPU_ReadMem(4 bytes @ 0xE000EDF0)
T2B6C 050:360.501   CPU_WriteMem(4 bytes @ 0xE0002000)
T2B6C 050:361.076   CPU_ReadMem(4 bytes @ 0xE000EDFC)
T2B6C 050:361.658   CPU_ReadMem(4 bytes @ 0xE0001000)
T2B6C 050:362.215   CPU_WriteMem(4 bytes @ 0xE0001000)
T2B6C 050:362.797 - 68.590ms
T2B6C 050:362.844 JLINK_HasError()
T2B6C 050:362.886 JLINK_ReadReg(R15 (PC))
T2B6C 050:362.900 - 0.018ms returns 0x000017A0
T2B6C 050:362.911 JLINK_ReadReg(XPSR)
T2B6C 050:362.922 - 0.016ms returns 0xC1000000
T2B6C 050:362.934 JLINK_Halt()
T2B6C 050:362.945 - 0.015ms returns 0x00
T2B6C 050:362.956 JLINK_ReadMemU32(0xE000EDF0, 0x1 Items)
T2B6C 050:362.971   CPU_ReadMem(4 bytes @ 0xE000EDF0)
T2B6C 050:363.546   Data:  03 00 03 00
T2B6C 050:363.566   Debug reg: DHCSR
T2B6C 050:363.582 - 0.630ms returns 1 (0x1)
T2B6C 050:363.596 JLINK_WriteU32_64(0xE000EDF0, 0xA05F0003)
T2B6C 050:363.607   Debug reg: DHCSR
T2B6C 050:363.839   CPU_WriteMem(4 bytes @ 0xE000EDF0)
T2B6C 050:364.418 - 0.830ms returns 0 (0x00000000)
T2B6C 050:364.434 JLINK_WriteU32_64(0xE000EDFC, 0x01000000)
T2B6C 050:364.445   Debug reg: DEMCR
T2B6C 050:364.462   CPU_WriteMem(4 bytes @ 0xE000EDFC)
T2B6C 050:365.004 - 0.579ms returns 0 (0x00000000)
T2B6C 050:365.047 JLINK_GetHWStatus(...)
T2B6C 050:365.498 - 0.458ms returns 0
T2B6C 050:365.525 JLINK_GetNumBPUnits(Type = 0xFFFFFF00)
T2B6C 050:365.538 - 0.019ms returns 0x04
T2B6C 050:365.550 JLINK_GetNumBPUnits(Type = 0xF0)
T2B6C 050:365.561 - 0.016ms returns 0x2000
T2B6C 050:365.573 JLINK_GetNumWPUnits()
T2B6C 050:365.584 - 0.015ms returns 2
T2B6C 050:365.605 JLINK_GetSpeed()
T2B6C 050:365.617 - 0.017ms returns 4000
T2B6C 050:365.635 JLINK_ReadMemU32(0xE000E004, 0x1 Items)
T2B6C 050:365.649   CPU_ReadMem(4 bytes @ 0xE000E004)
T2B6C 050:366.173   Data:  00 00 00 00
T2B6C 050:366.191 - 0.562ms returns 1 (0x1)
T2B6C 050:366.212 JLINK_HasError()
T2B6C 050:366.225 JLINK_ReadReg(R15 (PC))
T2B6C 050:366.237 - 0.017ms returns 0x000017A0
T2B6C 050:366.249 JLINK_ReadReg(XPSR)
T2B6C 050:366.261 - 0.017ms returns 0xC1000000
T2B6C 050:425.151 JLINK_HasError()
T2B6C 050:425.177 JLINK_SetResetType(JLINKARM_CM3_RESET_TYPE_NORMAL)
T2B6C 050:425.187 - 0.015ms returns JLINKARM_CM3_RESET_TYPE_NORMAL
T2B6C 050:425.198 JLINK_Reset()
T2B6C 050:425.217   CPU_WriteMem(4 bytes @ 0xE000EDF0)
T2B6C 050:425.874   CPU_WriteMem(4 bytes @ 0xE000EDFC)
T2B6C 050:426.493   Reset: Halt core after reset via DEMCR.VC_CORERESET.
T2B6C 050:427.750   Reset: Reset device via AIRCR.SYSRESETREQ.
T2B6C 050:427.772   CPU_WriteMem(4 bytes @ 0xE000ED0C)
T2B6C 050:481.406   CPU_ReadMem(4 bytes @ 0xE000EDF0)
T2B6C 050:482.059   CPU_ReadMem(4 bytes @ 0xE000EDF0)
T2B6C 050:482.712   CPU_WriteMem(4 bytes @ 0xE000EDF0)
T2B6C 050:483.295   CPU_WriteMem(4 bytes @ 0xE000EDFC)
T2B6C 050:489.332   CPU_ReadMem(4 bytes @ 0xE000EDF0)
T2B6C 050:492.373   CPU_WriteMem(4 bytes @ 0xE0002000)
T2B6C 050:493.038   CPU_ReadMem(4 bytes @ 0xE000EDFC)
T2B6C 050:493.504   CPU_ReadMem(4 bytes @ 0xE0001000)
T2B6C 050:494.008   CPU_WriteMem(4 bytes @ 0xE0001000)
T2B6C 050:494.526 - 69.335ms
T2B6C 050:494.575 JLINK_HasError()
T2B6C 050:494.590 JLINK_ReadReg(R15 (PC))
T2B6C 050:494.603 - 0.018ms returns 0x000017A0
T2B6C 050:494.616 JLINK_ReadReg(XPSR)
T2B6C 050:494.627 - 0.017ms returns 0xC1000000
T2B6C 050:495.151 JLINK_ReadMemEx(0x000017A0, 0x3C Bytes, Flags = 0x02000000)
T2B6C 050:495.171   CPU_ReadMem(60 bytes @ 0x000017A0)
T2B6C 050:495.951   Data:  40 20 00 06 8C 30 01 68 85 20 00 02 40 30 00 02 ...
T2B6C 050:495.970 - 0.823ms returns 60 (0x3C)
T2B6C 050:495.982 JLINK_ReadMemEx(0x000017A0, 0x2 Bytes, Flags = 0x02000000)
T2B6C 050:495.996   CPU_ReadMem(2 bytes @ 0x000017A0)
T2B6C 050:496.533   Data:  40 20
T2B6C 050:496.554 - 0.577ms returns 2 (0x2)
T2B6C 050:496.567 JLINK_ReadMemEx(0x000017A2, 0x2 Bytes, Flags = 0x02000000)
T2B6C 050:496.582   CPU_ReadMem(2 bytes @ 0x000017A2)
T2B6C 050:497.092   Data:  00 06
T2B6C 050:497.111 - 0.550ms returns 2 (0x2)
T2B6C 050:497.131 JLINK_ReadMemEx(0x000017A2, 0x2 Bytes, Flags = 0x02000000)
T2B6C 050:497.145   CPU_ReadMem(2 bytes @ 0x000017A2)
T2B6C 050:497.722   Data:  00 06
T2B6C 050:497.742 - 0.615ms returns 2 (0x2)
T2B6C 050:497.754 JLINK_ReadMemEx(0x000017A4, 0x3C Bytes, Flags = 0x02000000)
T2B6C 050:497.769   CPU_ReadMem(60 bytes @ 0x000017A4)
T2B6C 050:498.634   Data:  8C 30 01 68 85 20 00 02 40 30 00 02 12 30 88 42 ...
T2B6C 050:498.653 - 0.905ms returns 60 (0x3C)
T2B6C 050:498.667 JLINK_ReadMemEx(0x000017A4, 0x2 Bytes, Flags = 0x02000000)
T2B6C 050:498.679   CPU_ReadMem(2 bytes @ 0x000017A4)
T2B6C 050:499.168   Data:  8C 30
T2B6C 050:499.186 - 0.524ms returns 2 (0x2)
T2B6C 050:589.085 JLINK_ReadMemEx(0x40000800, 0xC Bytes, Flags = 0x02000004)
T2B6C 050:589.118   CPU_ReadMem(12 bytes @ 0x40000800)
T2B6C 050:589.684   Data:  00 00 00 00 00 00 00 00 00 00 00 00
T2B6C 050:589.708 - 0.628ms returns 12 (0xC)
T2B6C 050:589.724 JLINK_ReadMemEx(0x4000080C, 0x4 Bytes, Flags = 0x02000004)
T2B6C 050:589.738   CPU_ReadMem(4 bytes @ 0x4000080C)
T2B6C 050:590.206   Data:  00 00 00 00
T2B6C 050:590.224 - 0.505ms returns 4 (0x4)
T2B6C 050:590.237 JLINK_ReadMemEx(0x4000083C, 0x30 Bytes, Flags = 0x02000004)
T2B6C 050:590.250   CPU_ReadMem(48 bytes @ 0x4000083C)
T2B6C 050:590.913   Data:  00 00 00 00 00 00 00 00 00 00 00 00 00 00 00 00 ...
T2B6C 050:590.932 - 0.699ms returns 48 (0x30)
T2B6C 050:590.945 JLINK_ReadMemEx(0x4000086C, 0x4 Bytes, Flags = 0x02000004)
T2B6C 050:590.960   CPU_ReadMem(4 bytes @ 0x4000086C)
T2B6C 050:591.402   Data:  00 00 00 00
T2B6C 050:591.420 - 0.479ms returns 4 (0x4)
T2B6C 050:591.432 JLINK_ReadMemEx(0x40000880, 0x2C Bytes, Flags = 0x02000004)
T2B6C 050:591.444   CPU_ReadMem(44 bytes @ 0x40000880)
T2B6C 050:592.042   Data:  00 00 00 00 00 00 00 00 00 00 00 00 00 00 00 00 ...
T2B6C 050:592.059 - 0.632ms returns 44 (0x2C)
T2B6C 050:592.071 JLINK_ReadMemEx(0x400008AC, 0x4 Bytes, Flags = 0x02000004)
T2B6C 050:592.083   CPU_ReadMem(4 bytes @ 0x400008AC)
T2B6C 050:592.509   Data:  00 00 00 00
T2B6C 050:592.529 - 0.462ms returns 4 (0x4)
T2B6C 050:592.542 JLINK_ReadMemEx(0x400008C0, 0x2C Bytes, Flags = 0x02000004)
T2B6C 050:592.555   CPU_ReadMem(44 bytes @ 0x400008C0)
T2B6C 050:593.205   Data:  00 00 00 00 00 00 00 00 00 00 00 00 00 00 00 00 ...
T2B6C 050:593.223 - 0.686ms returns 44 (0x2C)
T2B6C 050:593.236 JLINK_ReadMemEx(0x400008EC, 0x4 Bytes, Flags = 0x02000004)
T2B6C 050:593.248   CPU_ReadMem(4 bytes @ 0x400008EC)
T2B6C 050:593.696   Data:  00 00 00 00
T2B6C 050:593.716 - 0.485ms returns 4 (0x4)
T2B6C 050:593.729 JLINK_ReadMemEx(0x40000900, 0x2C Bytes, Flags = 0x02000004)
T2B6C 050:593.742   CPU_ReadMem(44 bytes @ 0x40000900)
T2B6C 050:594.310   Data:  00 00 00 00 00 00 00 00 00 00 00 00 00 00 00 00 ...
T2B6C 050:594.328 - 0.603ms returns 44 (0x2C)
T2B6C 050:594.340 JLINK_ReadMemEx(0x4000092C, 0x4 Bytes, Flags = 0x02000004)
T2B6C 050:594.352   CPU_ReadMem(4 bytes @ 0x4000092C)
T2B6C 050:594.870   Data:  00 00 00 00
T2B6C 050:594.892 - 0.558ms returns 4 (0x4)
T2B6C 050:625.601 JLINK_ReadMemEx(0x40046000, 0x38 Bytes, Flags = 0x02000004)
T2B6C 050:625.641   CPU_ReadMem(56 bytes @ 0x40046000)
T2B6C 050:626.331   Data:  00 00 00 00 00 00 00 00 00 00 00 00 00 00 00 00 ...
T2B6C 050:626.350 - 0.754ms returns 56 (0x38)
T2B6C 050:626.364 JLINK_ReadMemEx(0x40046038, 0x4 Bytes, Flags = 0x02000004)
T2B6C 050:626.379   CPU_ReadMem(4 bytes @ 0x40046038)
T2B6C 050:626.834   Data:  00 00 00 00
T2B6C 050:626.852 - 0.492ms returns 4 (0x4)
T2B6C 050:654.993 JLINK_ReadMemEx(0x400468C0, 0x30 Bytes, Flags = 0x02000004)
T2B6C 050:655.065   CPU_ReadMem(48 bytes @ 0x400468C0)
T2B6C 050:655.734   Data:  00 00 00 00 00 00 00 00 00 00 00 00 00 00 00 00 ...
T2B6C 050:655.762 - 0.778ms returns 48 (0x30)
T2B6C 050:655.787 JLINK_ReadMemEx(0x400468F0, 0x4 Bytes, Flags = 0x02000004)
T2B6C 050:655.810   CPU_ReadMem(4 bytes @ 0x400468F0)
T2B6C 050:656.316   Data:  00 00 00 00
T2B6C 050:656.339 - 0.557ms returns 4 (0x4)
T2B6C 051:591.601 JLINK_ReadMemEx(0x000017A0, 0x3C Bytes, Flags = 0x02000000)
T2B6C 051:591.633   CPU_ReadMem(60 bytes @ 0x000017A0)
T2B6C 051:592.414   Data:  40 20 00 06 8C 30 01 68 85 20 00 02 40 30 00 02 ...
T2B6C 051:592.439 - 0.843ms returns 60 (0x3C)
T2B6C 051:592.453 JLINK_ReadMemEx(0x000017A0, 0x2 Bytes, Flags = 0x02000000)
T2B6C 051:592.469   CPU_ReadMem(2 bytes @ 0x000017A0)
T2B6C 051:593.060   Data:  40 20
T2B6C 051:593.081 - 0.633ms returns 2 (0x2)
T2B6C 051:593.095 JLINK_ReadMemEx(0x000017A2, 0x2 Bytes, Flags = 0x02000000)
T2B6C 051:593.109   CPU_ReadMem(2 bytes @ 0x000017A2)
T2B6C 051:593.657   Data:  00 06
T2B6C 051:593.674 - 0.583ms returns 2 (0x2)
T2B6C 051:593.695 JLINK_ReadMemEx(0x000017A2, 0x2 Bytes, Flags = 0x02000000)
T2B6C 051:593.708   CPU_ReadMem(2 bytes @ 0x000017A2)
T2B6C 051:594.223   Data:  00 06
T2B6C 051:594.240 - 0.550ms returns 2 (0x2)
T2B6C 051:594.252 JLINK_ReadMemEx(0x000017A4, 0x3C Bytes, Flags = 0x02000000)
T2B6C 051:594.266   CPU_ReadMem(60 bytes @ 0x000017A4)
T2B6C 051:595.032   Data:  8C 30 01 68 85 20 00 02 40 30 00 02 12 30 88 42 ...
T2B6C 051:595.049 - 0.801ms returns 60 (0x3C)
T2B6C 051:595.060 JLINK_ReadMemEx(0x000017A4, 0x2 Bytes, Flags = 0x02000000)
T2B6C 051:595.072   CPU_ReadMem(2 bytes @ 0x000017A4)
T2B6C 051:595.595   Data:  8C 30
T2B6C 051:595.612 - 0.556ms returns 2 (0x2)
T2B6C 051:595.628 JLINK_ReadMemEx(0x000017A4, 0x3C Bytes, Flags = 0x02000000)
T2B6C 051:595.640   CPU_ReadMem(60 bytes @ 0x000017A4)
T2B6C 051:596.467   Data:  8C 30 01 68 85 20 00 02 40 30 00 02 12 30 88 42 ...
T2B6C 051:596.483 - 0.860ms returns 60 (0x3C)
T2B6C 051:596.495 JLINK_ReadMemEx(0x000017A4, 0x2 Bytes, Flags = 0x02000000)
T2B6C 051:596.508   CPU_ReadMem(2 bytes @ 0x000017A4)
T2B6C 051:597.094   Data:  8C 30
T2B6C 051:597.112 - 0.621ms returns 2 (0x2)
T2B6C 051:597.124 JLINK_ReadMemEx(0x000017A6, 0x2 Bytes, Flags = 0x02000000)
T2B6C 051:597.136   CPU_ReadMem(2 bytes @ 0x000017A6)
T2B6C 051:597.719   Data:  01 68
T2B6C 051:597.736 - 0.617ms returns 2 (0x2)
T1D90 051:750.801 JLINK_ReadMemEx(0x000017A0, 0x2 Bytes, Flags = 0x02000000)
T1D90 051:750.912   CPU_ReadMem(2 bytes @ 0x000017A0)
T1D90 051:751.557   Data:  40 20
T1D90 051:751.586 - 0.794ms returns 2 (0x2)
T1D90 051:751.604 JLINK_HasError()
T1D90 051:751.625 JLINK_SetBPEx(Addr = 0x00000114, Type = 0xFFFFFFF2)
T1D90 051:751.640 - 0.020ms returns 0x00000001
T1D90 051:751.652 JLINK_HasError()
T1D90 051:751.663 JLINK_HasError()
T1D90 051:751.678 JLINK_Go()
T1D90 051:752.331   CPU_WriteMem(4 bytes @ 0xE0002000)
T1D90 051:752.831   CPU_ReadMem(4 bytes @ 0xE0001000)
T1D90 051:753.315   CPU_WriteMem(4 bytes @ 0xE0001000)
T1D90 051:753.341   CPU_WriteMem(4 bytes @ 0xE0002008)
T1D90 051:753.359   CPU_WriteMem(4 bytes @ 0xE000200C)
T1D90 051:753.375   CPU_WriteMem(4 bytes @ 0xE0002010)
T1D90 051:753.391   CPU_WriteMem(4 bytes @ 0xE0002014)
T1D90 051:754.486   CPU_WriteMem(4 bytes @ 0xE0001004)
T1D90 051:755.612 - 3.945ms
T1D90 051:855.943 JLINK_HasError()
T1D90 051:855.984 JLINK_IsHalted()
T1D90 051:858.419 - 2.444ms returns TRUE
T1D90 051:858.436 JLINK_HasError()
T1D90 051:858.447 JLINK_Halt()
T1D90 051:858.457 - 0.014ms returns 0x00
T1D90 051:858.467 JLINK_IsHalted()
T1D90 051:858.476 - 0.014ms returns TRUE
T1D90 051:858.487 JLINK_IsHalted()
T1D90 051:858.496 - 0.013ms returns TRUE
T1D90 051:858.506 JLINK_IsHalted()
T1D90 051:858.516 - 0.014ms returns TRUE
T1D90 051:858.526 JLINK_HasError()
T1D90 051:858.536 JLINK_ReadReg(R15 (PC))
T1D90 051:858.548 - 0.015ms returns 0x00000114
T1D90 051:858.559 JLINK_ReadReg(XPSR)
T1D90 051:858.569 - 0.014ms returns 0x61000000
T1D90 051:858.586 JLINK_HasError()
T1D90 051:858.598 JLINK_ClrBPEx(BPHandle = 0x00000001)
T1D90 051:858.609 - 0.015ms returns 0x00
T1D90 051:858.619 JLINK_HasError()
T1D90 051:858.629 JLINK_HasError()
T1D90 051:858.640 JLINK_ReadMemU32(0xE000ED30, 0x1 Items)
T1D90 051:858.653   CPU_ReadMem(4 bytes @ 0xE000ED30)
T1D90 051:859.253   Data:  02 00 00 00
T1D90 051:859.273 - 0.638ms returns 1 (0x1)
T1D90 051:859.284 JLINK_ReadMemU32(0xE0001028, 0x1 Items)
T1D90 051:859.297   CPU_ReadMem(4 bytes @ 0xE0001028)
T1D90 051:859.893   Data:  00 00 00 00
T1D90 051:859.914   Debug reg: DWT_FUNC[0]
T1D90 051:859.928 - 0.650ms returns 1 (0x1)
T1D90 051:859.942 JLINK_ReadMemU32(0xE0001038, 0x1 Items)
T1D90 051:859.954   CPU_ReadMem(4 bytes @ 0xE0001038)
T1D90 051:860.608   Data:  00 00 00 00
T1D90 051:860.680   Debug reg: DWT_FUNC[1]
T1D90 051:860.696 - 0.760ms returns 1 (0x1)
T1D90 051:860.730 JLINK_HasError()
T1D90 051:860.744 JLINK_ReadReg(R0)
T1D90 051:860.758 - 0.019ms returns 0x00000115
T1D90 051:860.771 JLINK_ReadReg(R1)
T1D90 051:860.785 - 0.019ms returns 0x20000438
T1D90 051:860.797 JLINK_ReadReg(R2)
T1D90 051:860.807 - 0.016ms returns 0x00000000
T1D90 051:860.819 JLINK_ReadReg(R3)
T1D90 051:860.830 - 0.017ms returns 0x0000189F
T1D90 051:860.844 JLINK_ReadReg(R4)
T1D90 051:860.857 - 0.021ms returns 0x000018CC
T1D90 051:860.873 JLINK_ReadReg(R5)
T1D90 051:860.886 - 0.019ms returns 0x00000001
T1D90 051:860.898 JLINK_ReadReg(R6)
T1D90 051:860.909 - 0.016ms returns 0x000018CC
T1D90 051:860.921 JLINK_ReadReg(R7)
T1D90 051:860.931 - 0.017ms returns 0xFFFFFFFF
T1D90 051:860.944 JLINK_ReadReg(R8)
T1D90 051:860.956 - 0.017ms returns 0xFFFFFFFF
T1D90 051:860.967 JLINK_ReadReg(R9)
T1D90 051:860.979 - 0.016ms returns 0xFFFFFFFF
T1D90 051:860.991 JLINK_ReadReg(R10)
T1D90 051:861.002 - 0.017ms returns 0xFFFFFFFF
T1D90 051:861.015 JLINK_ReadReg(R11)
T1D90 051:861.029 - 0.021ms returns 0xFFFFFFFF
T1D90 051:861.045 JLINK_ReadReg(R12)
T1D90 051:861.056 - 0.016ms returns 0xFFFFFFFF
T1D90 051:861.067 JLINK_ReadReg(R13 (SP))
T1D90 051:861.079 - 0.018ms returns 0x20000438
T1D90 051:861.094 JLINK_ReadReg(R14)
T1D90 051:861.108 - 0.020ms returns 0x0000186D
T1D90 051:861.121 JLINK_ReadReg(R15 (PC))
T1D90 051:861.133 - 0.016ms returns 0x00000114
T1D90 051:861.146 JLINK_ReadReg(XPSR)
T1D90 051:861.159 - 0.018ms returns 0x61000000
T1D90 051:861.170 JLINK_ReadReg(MSP)
T1D90 051:861.181 - 0.016ms returns 0x20000438
T1D90 051:861.193 JLINK_ReadReg(PSP)
T1D90 051:861.205 - 0.019ms returns 0xFFFFFFFC
T1D90 051:861.218 JLINK_ReadReg(CFBP)
T1D90 051:861.230 - 0.017ms returns 0x00000000
T2B6C 051:863.023 JLINK_ReadMemEx(0x40000800, 0xC Bytes, Flags = 0x02000004)
T2B6C 051:863.053   CPU_ReadMem(12 bytes @ 0x40000800)
T2B6C 051:863.654   Data:  00 00 00 00 00 00 00 00 00 00 00 00
T2B6C 051:863.674 - 0.658ms returns 12 (0xC)
T2B6C 051:863.689 JLINK_ReadMemEx(0x4000080C, 0x4 Bytes, Flags = 0x02000004)
T2B6C 051:863.702   CPU_ReadMem(4 bytes @ 0x4000080C)
T2B6C 051:864.240   Data:  00 00 00 00
T2B6C 051:864.258 - 0.574ms returns 4 (0x4)
T2B6C 051:864.271 JLINK_ReadMemEx(0x4000083C, 0x30 Bytes, Flags = 0x02000004)
T2B6C 051:864.284   CPU_ReadMem(48 bytes @ 0x4000083C)
T2B6C 051:865.021   Data:  00 00 00 00 00 00 00 00 00 00 00 00 00 00 00 00 ...
T2B6C 051:865.037 - 0.770ms returns 48 (0x30)
T2B6C 051:865.049 JLINK_ReadMemEx(0x4000086C, 0x4 Bytes, Flags = 0x02000004)
T2B6C 051:865.060   CPU_ReadMem(4 bytes @ 0x4000086C)
T2B6C 051:865.617   Data:  00 00 00 00
T2B6C 051:865.635 - 0.591ms returns 4 (0x4)
T2B6C 051:865.647 JLINK_ReadMemEx(0x40000880, 0x2C Bytes, Flags = 0x02000004)
T2B6C 051:865.659   CPU_ReadMem(44 bytes @ 0x40000880)
T2B6C 051:866.406   Data:  00 00 00 00 00 00 00 00 00 00 00 00 00 00 00 00 ...
T2B6C 051:866.428 - 0.788ms returns 44 (0x2C)
T2B6C 051:866.446 JLINK_ReadMemEx(0x400008AC, 0x4 Bytes, Flags = 0x02000004)
T2B6C 051:866.460   CPU_ReadMem(4 bytes @ 0x400008AC)
T2B6C 051:866.987   Data:  00 00 00 00
T2B6C 051:867.027 - 0.586ms returns 4 (0x4)
T2B6C 051:867.041 JLINK_ReadMemEx(0x400008C0, 0x2C Bytes, Flags = 0x02000004)
T2B6C 051:867.055   CPU_ReadMem(44 bytes @ 0x400008C0)
T2B6C 051:867.752   Data:  00 00 00 00 00 00 00 00 00 00 00 00 00 00 00 00 ...
T2B6C 051:867.768 - 0.731ms returns 44 (0x2C)
T2B6C 051:867.782 JLINK_ReadMemEx(0x400008EC, 0x4 Bytes, Flags = 0x02000004)
T2B6C 051:867.809   CPU_ReadMem(4 bytes @ 0x400008EC)
T2B6C 051:868.443   Data:  00 00 00 00
T2B6C 051:868.468 - 0.692ms returns 4 (0x4)
T2B6C 051:868.486 JLINK_ReadMemEx(0x40000900, 0x2C Bytes, Flags = 0x02000004)
T2B6C 051:868.501   CPU_ReadMem(44 bytes @ 0x40000900)
T2B6C 051:869.255   Data:  00 00 00 00 00 00 00 00 00 00 00 00 00 00 00 00 ...
T2B6C 051:869.277 - 0.796ms returns 44 (0x2C)
T2B6C 051:869.293 JLINK_ReadMemEx(0x4000092C, 0x4 Bytes, Flags = 0x02000004)
T2B6C 051:869.343   CPU_ReadMem(4 bytes @ 0x4000092C)
T2B6C 051:869.753   Data:  00 00 00 00
T2B6C 051:869.771 - 0.483ms returns 4 (0x4)
T2B6C 051:870.239 JLINK_ReadMemEx(0x400468C0, 0x30 Bytes, Flags = 0x02000004)
T2B6C 051:870.256   CPU_ReadMem(48 bytes @ 0x400468C0)
T2B6C 051:870.862   Data:  00 00 00 00 00 00 00 00 00 00 00 00 00 00 00 00 ...
T2B6C 051:870.889 - 0.656ms returns 48 (0x30)
T2B6C 051:870.903 JLINK_ReadMemEx(0x400468F0, 0x4 Bytes, Flags = 0x02000004)
T2B6C 051:870.922   CPU_ReadMem(4 bytes @ 0x400468F0)
T2B6C 051:871.327   Data:  00 00 00 00
T2B6C 051:871.346 - 0.449ms returns 4 (0x4)
T2B6C 051:871.494 JLINK_ReadMemEx(0x40046000, 0x38 Bytes, Flags = 0x02000004)
T2B6C 051:871.510   CPU_ReadMem(56 bytes @ 0x40046000)
T2B6C 051:872.210   Data:  00 00 00 00 00 00 00 00 00 00 00 00 00 00 00 00 ...
T2B6C 051:872.228 - 0.738ms returns 56 (0x38)
T2B6C 051:872.241 JLINK_ReadMemEx(0x40046038, 0x4 Bytes, Flags = 0x02000004)
T2B6C 051:872.254   CPU_ReadMem(4 bytes @ 0x40046038)
T2B6C 051:872.671   Data:  00 00 00 00
T2B6C 051:872.690 - 0.454ms returns 4 (0x4)
T1D90 052:662.746 JLINK_ReadMemEx(0x00000114, 0x2 Bytes, Flags = 0x02000000)
T1D90 052:662.789   CPU_ReadMem(64 bytes @ 0x00000100)
T1D90 052:663.635    -- Updating DA cache (64 bytes @ 0x00000100)
T1D90 052:663.660    -- Read from DA cache (2 bytes @ 0x00000114)
T1D90 052:663.676   Data:  8E B0
T1D90 052:663.691 - 0.950ms returns 2 (0x2)
T1D90 052:663.708 JLINK_HasError()
T1D90 052:663.720 JLINK_HasError()
T1D90 052:663.731 JLINK_Go()
T1D90 052:664.336   CPU_ReadMem(4 bytes @ 0xE0001000)
T1D90 052:664.945   CPU_WriteMem(4 bytes @ 0xE0001000)
T1D90 052:664.969   CPU_WriteMem(4 bytes @ 0xE0002008)
T1D90 052:666.244 - 2.538ms
T1D90 052:767.736 JLINK_HasError()
T1D90 052:767.773 JLINK_IsHalted()
T1D90 052:768.945 - 1.197ms returns FALSE
T1D90 052:869.473 JLINK_HasError()
T1D90 052:869.514 JLINK_IsHalted()
T1D90 052:870.688 - 1.221ms returns FALSE
T1D90 052:971.483 JLINK_HasError()
T1D90 052:971.538 JLINK_IsHalted()
T1D90 052:972.764 - 1.252ms returns FALSE
T1D90 053:072.913 JLINK_HasError()
T1D90 053:072.957 JLINK_IsHalted()
T1D90 053:074.120 - 1.188ms returns FALSE
T1D90 053:174.448 JLINK_HasError()
T1D90 053:174.488 JLINK_HasError()
T2B6C 053:174.587 JLINK_ReadMemEx(0x40000800, 0xC Bytes, Flags = 0x02000004)
T2B6C 053:174.610   CPU_ReadMem(12 bytes @ 0x40000800)
T2B6C 053:175.462   Data:  01 00 00 00 02 00 00 00 00 00 00 00
T2B6C 053:175.494 - 0.912ms returns 12 (0xC)
T2B6C 053:175.511 JLINK_ReadMemEx(0x4000080C, 0x4 Bytes, Flags = 0x02000004)
T2B6C 053:175.525   CPU_ReadMem(4 bytes @ 0x4000080C)
T2B6C 053:176.633   Data:  00 00 00 00
T2B6C 053:176.670 - 1.163ms returns 4 (0x4)
T2B6C 053:176.688 JLINK_ReadMemEx(0x4000083C, 0x30 Bytes, Flags = 0x02000004)
T2B6C 053:176.704   CPU_ReadMem(48 bytes @ 0x4000083C)
T2B6C 053:178.511   Data:  00 00 00 00 00 00 00 00 00 00 00 00 00 00 00 00 ...
T2B6C 053:178.574 - 1.891ms returns 48 (0x30)
T2B6C 053:178.595 JLINK_ReadMemEx(0x4000086C, 0x4 Bytes, Flags = 0x02000004)
T2B6C 053:178.612   CPU_ReadMem(4 bytes @ 0x4000086C)
T2B6C 053:179.721   Data:  00 00 00 00
T2B6C 053:179.757 - 1.167ms returns 4 (0x4)
T2B6C 053:179.783 JLINK_ReadMemEx(0x40000880, 0x2C Bytes, Flags = 0x02000004)
T2B6C 053:179.800   CPU_ReadMem(44 bytes @ 0x40000880)
T2B6C 053:181.523   Data:  03 00 01 00 08 09 00 00 08 60 04 40 00 00 00 00 ...
T2B6C 053:181.560 - 1.781ms returns 44 (0x2C)
T2B6C 053:181.581 JLINK_ReadMemEx(0x400008AC, 0x4 Bytes, Flags = 0x02000004)
T2B6C 053:181.606   CPU_ReadMem(4 bytes @ 0x400008AC)
T2B6C 053:182.370   Data:  04 00 04 00
T2B6C 053:182.421 - 0.848ms returns 4 (0x4)
T2B6C 053:182.451 JLINK_ReadMemEx(0x400008C0, 0x2C Bytes, Flags = 0x02000004)
T2B6C 053:182.480   CPU_ReadMem(44 bytes @ 0x400008C0)
T2B6C 053:183.320   Data:  00 00 00 00 00 00 00 00 00 00 00 00 00 00 00 00 ...
T2B6C 053:183.359 - 0.952ms returns 44 (0x2C)
T2B6C 053:184.214 JLINK_ReadMemEx(0x400008EC, 0x4 Bytes, Flags = 0x02000004)
T2B6C 053:184.239   CPU_ReadMem(4 bytes @ 0x400008EC)
T2B6C 053:185.049   Data:  00 00 00 00
T2B6C 053:185.072 - 0.862ms returns 4 (0x4)
T2B6C 053:185.086 JLINK_ReadMemEx(0x40000900, 0x2C Bytes, Flags = 0x02000004)
T2B6C 053:185.101   CPU_ReadMem(44 bytes @ 0x40000900)
T2B6C 053:185.774   Data:  00 00 00 00 00 00 00 00 00 00 00 00 00 00 00 00 ...
T2B6C 053:185.794 - 0.712ms returns 44 (0x2C)
T2B6C 053:185.808 JLINK_ReadMemEx(0x4000092C, 0x4 Bytes, Flags = 0x02000004)
T2B6C 053:185.822   CPU_ReadMem(4 bytes @ 0x4000092C)
T2B6C 053:186.356   Data:  00 00 00 00
T2B6C 053:186.373 - 0.569ms returns 4 (0x4)
T2B6C 053:186.861 JLINK_ReadMemEx(0x400468C0, 0x30 Bytes, Flags = 0x02000004)
T2B6C 053:186.876   CPU_ReadMem(48 bytes @ 0x400468C0)
T2B6C 053:187.679   Data:  00 00 00 00 FF FF FF FF 00 00 00 00 00 00 00 00 ...
T2B6C 053:187.695 - 0.838ms returns 48 (0x30)
T2B6C 053:187.706 JLINK_ReadMemEx(0x400468F0, 0x4 Bytes, Flags = 0x02000004)
T2B6C 053:187.717   CPU_ReadMem(4 bytes @ 0x400468F0)
T2B6C 053:188.325   Data:  00 00 00 00
T2B6C 053:188.341 - 0.638ms returns 4 (0x4)
T2B6C 053:188.474 JLINK_ReadMemEx(0x40046000, 0x38 Bytes, Flags = 0x02000004)
T2B6C 053:188.488   CPU_ReadMem(56 bytes @ 0x40046000)
T2B6C 053:189.282   Data:  00 00 00 00 10 27 00 00 88 13 00 00 00 00 00 00 ...
T2B6C 053:189.298 - 0.828ms returns 56 (0x38)
T2B6C 053:189.309 JLINK_ReadMemEx(0x40046038, 0x4 Bytes, Flags = 0x02000004)
T2B6C 053:189.322   CPU_ReadMem(4 bytes @ 0x40046038)
T2B6C 053:189.841   Data:  00 00 00 00
T2B6C 053:189.857 - 0.552ms returns 4 (0x4)
T1D90 053:203.318 JLINK_IsHalted()
T1D90 053:204.003 - 0.695ms returns FALSE
T1D90 053:304.548 JLINK_HasError()
T1D90 053:304.588 JLINK_IsHalted()
T1D90 053:305.277 - 0.713ms returns FALSE
T1D90 053:405.909 JLINK_HasError()
T1D90 053:405.946 JLINK_IsHalted()
T1D90 053:407.114 - 1.193ms returns FALSE
T1D90 053:508.193 JLINK_HasError()
T1D90 053:508.227 JLINK_IsHalted()
T1D90 053:509.104 - 0.908ms returns FALSE
T1D90 053:609.610 JLINK_HasError()
T1D90 053:609.651 JLINK_IsHalted()
T1D90 053:610.789 - 1.179ms returns FALSE
T1D90 053:711.159 JLINK_HasError()
T1D90 053:711.189 JLINK_HasError()
T2B6C 053:711.289 JLINK_ReadMemEx(0x40000800, 0xC Bytes, Flags = 0x02000004)
T2B6C 053:711.326   CPU_ReadMem(12 bytes @ 0x40000800)
T2B6C 053:712.021   Data:  01 00 00 00 02 00 00 00 00 00 00 00
T2B6C 053:712.044 - 0.760ms returns 12 (0xC)
T2B6C 053:712.059 JLINK_ReadMemEx(0x4000080C, 0x4 Bytes, Flags = 0x02000004)
T2B6C 053:712.074   CPU_ReadMem(4 bytes @ 0x4000080C)
T2B6C 053:712.603   Data:  00 00 00 00
T2B6C 053:712.625 - 0.570ms returns 4 (0x4)
T2B6C 053:712.639 JLINK_ReadMemEx(0x4000083C, 0x30 Bytes, Flags = 0x02000004)
T2B6C 053:712.653   CPU_ReadMem(48 bytes @ 0x4000083C)
T2B6C 053:713.398   Data:  00 00 00 00 00 00 00 00 00 00 00 00 00 00 00 00 ...
T2B6C 053:713.423 - 0.789ms returns 48 (0x30)
T2B6C 053:713.437 JLINK_ReadMemEx(0x4000086C, 0x4 Bytes, Flags = 0x02000004)
T2B6C 053:713.450   CPU_ReadMem(4 bytes @ 0x4000086C)
T2B6C 053:714.080   Data:  00 00 00 00
T2B6C 053:714.101 - 0.670ms returns 4 (0x4)
T2B6C 053:714.115 JLINK_ReadMemEx(0x40000880, 0x2C Bytes, Flags = 0x02000004)
T2B6C 053:714.127   CPU_ReadMem(44 bytes @ 0x40000880)
T2B6C 053:714.834   Data:  03 00 01 00 08 09 00 00 08 60 04 40 00 00 00 00 ...
T2B6C 053:714.860 - 0.751ms returns 44 (0x2C)
T2B6C 053:714.877 JLINK_ReadMemEx(0x400008AC, 0x4 Bytes, Flags = 0x02000004)
T2B6C 053:714.894   CPU_ReadMem(4 bytes @ 0x400008AC)
T2B6C 053:715.406   Data:  03 00 03 00
T2B6C 053:715.426 - 0.555ms returns 4 (0x4)
T2B6C 053:715.439 JLINK_ReadMemEx(0x400008C0, 0x2C Bytes, Flags = 0x02000004)
T2B6C 053:715.453   CPU_ReadMem(44 bytes @ 0x400008C0)
T2B6C 053:716.254   Data:  00 00 00 00 00 00 00 00 00 00 00 00 00 00 00 00 ...
T2B6C 053:716.276 - 0.842ms returns 44 (0x2C)
T2B6C 053:716.290 JLINK_ReadMemEx(0x400008EC, 0x4 Bytes, Flags = 0x02000004)
T2B6C 053:716.304   CPU_ReadMem(4 bytes @ 0x400008EC)
T2B6C 053:716.953   Data:  00 00 00 00
T2B6C 053:716.970 - 0.685ms returns 4 (0x4)
T2B6C 053:716.983 JLINK_ReadMemEx(0x40000900, 0x2C Bytes, Flags = 0x02000004)
T2B6C 053:716.998   CPU_ReadMem(44 bytes @ 0x40000900)
T2B6C 053:717.652   Data:  00 00 00 00 00 00 00 00 00 00 00 00 00 00 00 00 ...
T2B6C 053:717.682 - 0.704ms returns 44 (0x2C)
T2B6C 053:717.697 JLINK_ReadMemEx(0x4000092C, 0x4 Bytes, Flags = 0x02000004)
T2B6C 053:717.711   CPU_ReadMem(4 bytes @ 0x4000092C)
T2B6C 053:718.186   Data:  00 00 00 00
T2B6C 053:718.206 - 0.514ms returns 4 (0x4)
T2B6C 053:719.344 JLINK_ReadMemEx(0x400468C0, 0x30 Bytes, Flags = 0x02000004)
T2B6C 053:719.375   CPU_ReadMem(48 bytes @ 0x400468C0)
T2B6C 053:720.092   Data:  00 00 00 00 FF FF FF FF 00 00 00 00 00 00 00 00 ...
T2B6C 053:720.150 - 0.815ms returns 48 (0x30)
T2B6C 053:720.179 JLINK_ReadMemEx(0x400468F0, 0x4 Bytes, Flags = 0x02000004)
T2B6C 053:720.212   CPU_ReadMem(4 bytes @ 0x400468F0)
T2B6C 053:720.758   Data:  00 00 00 00
T2B6C 053:720.778 - 0.604ms returns 4 (0x4)
T2B6C 053:720.956 JLINK_ReadMemEx(0x40046000, 0x38 Bytes, Flags = 0x02000004)
T2B6C 053:720.974   CPU_ReadMem(56 bytes @ 0x40046000)
T2B6C 053:721.675   Data:  00 00 00 00 10 27 00 00 00 01 00 00 00 00 00 00 ...
T2B6C 053:721.692 - 0.741ms returns 56 (0x38)
T2B6C 053:721.706 JLINK_ReadMemEx(0x40046038, 0x4 Bytes, Flags = 0x02000004)
T2B6C 053:721.718   CPU_ReadMem(4 bytes @ 0x40046038)
T2B6C 053:722.169   Data:  00 00 00 00
T2B6C 053:722.187 - 0.486ms returns 4 (0x4)
T1D90 053:730.318 JLINK_IsHalted()
T1D90 053:730.932 - 0.625ms returns FALSE
T1D90 053:831.007 JLINK_HasError()
T1D90 053:831.046 JLINK_IsHalted()
T1D90 053:831.655 - 0.636ms returns FALSE
T1D90 053:932.723 JLINK_HasError()
T1D90 053:932.782 JLINK_IsHalted()
T1D90 053:933.987 - 1.220ms returns FALSE
T1D90 054:035.392 JLINK_HasError()
T1D90 054:035.427 JLINK_IsHalted()
T1D90 054:036.696 - 1.303ms returns FALSE
T1D90 054:136.932 JLINK_HasError()
T1D90 054:136.995 JLINK_IsHalted()
T1D90 054:137.591 - 0.607ms returns FALSE
T1D90 054:238.740 JLINK_HasError()
T1D90 054:238.810 JLINK_HasError()
T2B6C 054:238.928 JLINK_ReadMemEx(0x40000800, 0xC Bytes, Flags = 0x02000004)
T2B6C 054:238.953   CPU_ReadMem(12 bytes @ 0x40000800)
T2B6C 054:240.707   Data:  01 00 00 00 02 00 00 00 00 00 00 00
T2B6C 054:240.743 - 1.819ms returns 12 (0xC)
T2B6C 054:240.760 JLINK_ReadMemEx(0x4000080C, 0x4 Bytes, Flags = 0x02000004)
T2B6C 054:240.777   CPU_ReadMem(4 bytes @ 0x4000080C)
T2B6C 054:242.086   Data:  00 00 00 00
T2B6C 054:242.124 - 1.368ms returns 4 (0x4)
T2B6C 054:242.141 JLINK_ReadMemEx(0x4000083C, 0x30 Bytes, Flags = 0x02000004)
T2B6C 054:242.157   CPU_ReadMem(48 bytes @ 0x4000083C)
T2B6C 054:243.030   Data:  00 00 00 00 00 00 00 00 00 00 00 00 00 00 00 00 ...
T2B6C 054:243.101 - 0.964ms returns 48 (0x30)
T2B6C 054:243.118 JLINK_ReadMemEx(0x4000086C, 0x4 Bytes, Flags = 0x02000004)
T2B6C 054:243.136   CPU_ReadMem(4 bytes @ 0x4000086C)
T2B6C 054:243.881   Data:  00 00 00 00
T2B6C 054:243.903 - 0.790ms returns 4 (0x4)
T2B6C 054:243.917 JLINK_ReadMemEx(0x40000880, 0x2C Bytes, Flags = 0x02000004)
T2B6C 054:243.930   CPU_ReadMem(44 bytes @ 0x40000880)
T2B6C 054:244.718   Data:  03 00 01 00 08 09 00 00 08 60 04 40 00 00 00 00 ...
T2B6C 054:244.734 - 0.821ms returns 44 (0x2C)
T2B6C 054:244.745 JLINK_ReadMemEx(0x400008AC, 0x4 Bytes, Flags = 0x02000004)
T2B6C 054:244.757   CPU_ReadMem(4 bytes @ 0x400008AC)
T2B6C 054:245.396   Data:  03 00 03 00
T2B6C 054:245.427 - 0.685ms returns 4 (0x4)
T2B6C 054:245.438 JLINK_ReadMemEx(0x400008C0, 0x2C Bytes, Flags = 0x02000004)
T2B6C 054:245.449   CPU_ReadMem(44 bytes @ 0x400008C0)
T2B6C 054:246.985   Data:  00 00 00 00 00 00 00 00 00 00 00 00 00 00 00 00 ...
T2B6C 054:247.016 - 1.582ms returns 44 (0x2C)
T2B6C 054:247.027 JLINK_ReadMemEx(0x400008EC, 0x4 Bytes, Flags = 0x02000004)
T2B6C 054:247.038   CPU_ReadMem(4 bytes @ 0x400008EC)
T2B6C 054:248.169   Data:  00 00 00 00
T2B6C 054:248.186 - 1.164ms returns 4 (0x4)
T2B6C 054:248.199 JLINK_ReadMemEx(0x40000900, 0x2C Bytes, Flags = 0x02000004)
T2B6C 054:248.211   CPU_ReadMem(44 bytes @ 0x40000900)
T2B6C 054:249.113   Data:  00 00 00 00 00 00 00 00 00 00 00 00 00 00 00 00 ...
T2B6C 054:249.134 - 0.939ms returns 44 (0x2C)
T2B6C 054:249.145 JLINK_ReadMemEx(0x4000092C, 0x4 Bytes, Flags = 0x02000004)
T2B6C 054:249.156   CPU_ReadMem(4 bytes @ 0x4000092C)
T2B6C 054:250.125   Data:  00 00 00 00
T2B6C 054:250.140 - 0.999ms returns 4 (0x4)
T2B6C 054:250.471 JLINK_ReadMemEx(0x400468C0, 0x30 Bytes, Flags = 0x02000004)
T2B6C 054:250.485   CPU_ReadMem(48 bytes @ 0x400468C0)
T2B6C 054:251.922   Data:  00 00 00 00 FF FF FF FF 00 00 00 00 00 00 00 00 ...
T2B6C 054:251.938 - 1.471ms returns 48 (0x30)
T2B6C 054:251.949 JLINK_ReadMemEx(0x400468F0, 0x4 Bytes, Flags = 0x02000004)
T2B6C 054:251.960   CPU_ReadMem(4 bytes @ 0x400468F0)
T2B6C 054:252.662   Data:  00 00 00 00
T2B6C 054:252.678 - 0.733ms returns 4 (0x4)
T2B6C 054:252.800 JLINK_ReadMemEx(0x40046000, 0x38 Bytes, Flags = 0x02000004)
T2B6C 054:252.813   CPU_ReadMem(56 bytes @ 0x40046000)
T2B6C 054:254.269   Data:  00 00 00 00 10 27 00 00 00 01 00 00 00 00 00 00 ...
T2B6C 054:254.285 - 1.489ms returns 56 (0x38)
T2B6C 054:254.296 JLINK_ReadMemEx(0x40046038, 0x4 Bytes, Flags = 0x02000004)
T2B6C 054:254.307   CPU_ReadMem(4 bytes @ 0x40046038)
T2B6C 054:255.742   Data:  00 00 00 00
T2B6C 054:255.758 - 1.466ms returns 4 (0x4)
T1D90 054:261.450 JLINK_IsHalted()
T1D90 054:262.160 - 0.720ms returns FALSE
T1D90 054:362.881 JLINK_HasError()
T1D90 054:362.930 JLINK_IsHalted()
T1D90 054:363.667 - 0.775ms returns FALSE
T1D90 054:464.077 JLINK_HasError()
T1D90 054:464.113 JLINK_IsHalted()
T1D90 054:465.396 - 1.308ms returns FALSE
T1D90 054:565.915 JLINK_HasError()
T1D90 054:565.950 JLINK_IsHalted()
T1D90 054:566.661 - 0.722ms returns FALSE
T1D90 054:667.234 JLINK_HasError()
T1D90 054:667.282 JLINK_IsHalted()
T1D90 054:668.433 - 1.177ms returns FALSE
T1D90 054:768.842 JLINK_HasError()
T1D90 054:768.900 JLINK_HasError()
T2B6C 054:769.055 JLINK_ReadMemEx(0x40000800, 0xC Bytes, Flags = 0x02000004)
T2B6C 054:769.115   CPU_ReadMem(12 bytes @ 0x40000800)
T2B6C 054:769.900   Data:  01 00 00 00 02 00 00 00 00 00 00 00
T2B6C 054:769.935 - 0.885ms returns 12 (0xC)
T2B6C 054:769.953 JLINK_ReadMemEx(0x4000080C, 0x4 Bytes, Flags = 0x02000004)
T2B6C 054:769.969   CPU_ReadMem(4 bytes @ 0x4000080C)
T2B6C 054:771.117   Data:  00 00 00 00
T2B6C 054:771.159 - 1.210ms returns 4 (0x4)
T2B6C 054:771.178 JLINK_ReadMemEx(0x4000083C, 0x30 Bytes, Flags = 0x02000004)
T2B6C 054:771.193   CPU_ReadMem(48 bytes @ 0x4000083C)
T2B6C 054:773.076   Data:  00 00 00 00 00 00 00 00 00 00 00 00 00 00 00 00 ...
T2B6C 054:773.112 - 1.939ms returns 48 (0x30)
T2B6C 054:773.133 JLINK_ReadMemEx(0x4000086C, 0x4 Bytes, Flags = 0x02000004)
T2B6C 054:773.155   CPU_ReadMem(4 bytes @ 0x4000086C)
T2B6C 054:774.302   Data:  00 00 00 00
T2B6C 054:774.351 - 1.222ms returns 4 (0x4)
T2B6C 054:774.371 JLINK_ReadMemEx(0x40000880, 0x2C Bytes, Flags = 0x02000004)
T2B6C 054:774.387   CPU_ReadMem(44 bytes @ 0x40000880)
T2B6C 054:776.152   Data:  03 00 01 00 08 09 00 00 08 60 04 40 00 00 00 00 ...
T2B6C 054:776.188 - 1.821ms returns 44 (0x2C)
T2B6C 054:776.209 JLINK_ReadMemEx(0x400008AC, 0x4 Bytes, Flags = 0x02000004)
T2B6C 054:776.225   CPU_ReadMem(4 bytes @ 0x400008AC)
T2B6C 054:776.910   Data:  03 00 03 00
T2B6C 054:776.964 - 0.760ms returns 4 (0x4)
T2B6C 054:776.984 JLINK_ReadMemEx(0x400008C0, 0x2C Bytes, Flags = 0x02000004)
T2B6C 054:777.021   CPU_ReadMem(44 bytes @ 0x400008C0)
T2B6C 054:778.772   Data:  00 00 00 00 00 00 00 00 00 00 00 00 00 00 00 00 ...
T2B6C 054:778.843 - 1.869ms returns 44 (0x2C)
T2B6C 054:778.876 JLINK_ReadMemEx(0x400008EC, 0x4 Bytes, Flags = 0x02000004)
T2B6C 054:778.899   CPU_ReadMem(4 bytes @ 0x400008EC)
T2B6C 054:779.587   Data:  00 00 00 00
T2B6C 054:779.629 - 0.759ms returns 4 (0x4)
T2B6C 054:779.660 JLINK_ReadMemEx(0x40000900, 0x2C Bytes, Flags = 0x02000004)
T2B6C 054:779.700   CPU_ReadMem(44 bytes @ 0x40000900)
T2B6C 054:780.567   Data:  00 00 00 00 00 00 00 00 00 00 00 00 00 00 00 00 ...
T2B6C 054:780.586 - 0.930ms returns 44 (0x2C)
T2B6C 054:780.600 JLINK_ReadMemEx(0x4000092C, 0x4 Bytes, Flags = 0x02000004)
T2B6C 054:780.634   CPU_ReadMem(4 bytes @ 0x4000092C)
T2B6C 054:781.183   Data:  00 00 00 00
T2B6C 054:781.201 - 0.606ms returns 4 (0x4)
T2B6C 054:781.585 JLINK_ReadMemEx(0x400468C0, 0x30 Bytes, Flags = 0x02000004)
T2B6C 054:781.601   CPU_ReadMem(48 bytes @ 0x400468C0)
T2B6C 054:782.443   Data:  00 00 00 00 FF FF FF FF 00 00 00 00 00 00 00 00 ...
T2B6C 054:782.458 - 0.877ms returns 48 (0x30)
T2B6C 054:782.470 JLINK_ReadMemEx(0x400468F0, 0x4 Bytes, Flags = 0x02000004)
T2B6C 054:782.481   CPU_ReadMem(4 bytes @ 0x400468F0)
T2B6C 054:783.042   Data:  00 00 00 00
T2B6C 054:783.058 - 0.592ms returns 4 (0x4)
T2B6C 054:783.218 JLINK_ReadMemEx(0x40046000, 0x38 Bytes, Flags = 0x02000004)
T2B6C 054:783.231   CPU_ReadMem(56 bytes @ 0x40046000)
T2B6C 054:784.101   Data:  00 00 00 00 10 27 00 00 00 01 00 00 00 00 00 00 ...
T2B6C 054:784.117 - 0.904ms returns 56 (0x38)
T2B6C 054:784.129 JLINK_ReadMemEx(0x40046038, 0x4 Bytes, Flags = 0x02000004)
T2B6C 054:784.140   CPU_ReadMem(4 bytes @ 0x40046038)
T2B6C 054:784.729   Data:  00 00 00 00
T2B6C 054:784.745 - 0.620ms returns 4 (0x4)
T1D90 054:789.415 JLINK_IsHalted()
T1D90 054:790.014 - 0.609ms returns FALSE
T1D90 054:890.994 JLINK_HasError()
T1D90 054:891.035 JLINK_IsHalted()
T1D90 054:891.877 - 0.868ms returns FALSE
T1D90 054:992.858 JLINK_HasError()
T1D90 054:992.915 JLINK_IsHalted()
T1D90 054:993.477 - 0.572ms returns FALSE
T1D90 055:094.018 JLINK_HasError()
T1D90 055:094.065 JLINK_IsHalted()
T1D90 055:094.824 - 0.789ms returns FALSE
T1D90 055:195.421 JLINK_HasError()
T1D90 055:195.457 JLINK_IsHalted()
T1D90 055:196.576 - 1.144ms returns FALSE
T1D90 055:296.662 JLINK_HasError()
T1D90 055:296.698 JLINK_HasError()
T2B6C 055:296.816 JLINK_ReadMemEx(0x40000800, 0xC Bytes, Flags = 0x02000004)
T2B6C 055:296.840   CPU_ReadMem(12 bytes @ 0x40000800)
T2B6C 055:298.159   Data:  01 00 00 00 02 00 00 00 00 00 00 00
T2B6C 055:298.196 - 1.385ms returns 12 (0xC)
T2B6C 055:298.216 JLINK_ReadMemEx(0x4000080C, 0x4 Bytes, Flags = 0x02000004)
T2B6C 055:298.234   CPU_ReadMem(4 bytes @ 0x4000080C)
T2B6C 055:299.046   Data:  00 00 00 00
T2B6C 055:299.079 - 0.867ms returns 4 (0x4)
T2B6C 055:299.096 JLINK_ReadMemEx(0x4000083C, 0x30 Bytes, Flags = 0x02000004)
T2B6C 055:299.110   CPU_ReadMem(48 bytes @ 0x4000083C)
T2B6C 055:299.852   Data:  00 00 00 00 00 00 00 00 00 00 00 00 00 00 00 00 ...
T2B6C 055:299.895 - 0.804ms returns 48 (0x30)
T2B6C 055:299.911 JLINK_ReadMemEx(0x4000086C, 0x4 Bytes, Flags = 0x02000004)
T2B6C 055:299.927   CPU_ReadMem(4 bytes @ 0x4000086C)
T2B6C 055:300.509   Data:  00 00 00 00
T2B6C 055:300.544 - 0.637ms returns 4 (0x4)
T2B6C 055:300.556 JLINK_ReadMemEx(0x40000880, 0x2C Bytes, Flags = 0x02000004)
T2B6C 055:300.568   CPU_ReadMem(44 bytes @ 0x40000880)
T2B6C 055:302.052   Data:  03 00 01 00 08 09 00 00 08 60 04 40 00 00 00 00 ...
T2B6C 055:302.083 - 1.532ms returns 44 (0x2C)
T2B6C 055:302.095 JLINK_ReadMemEx(0x400008AC, 0x4 Bytes, Flags = 0x02000004)
T2B6C 055:302.108   CPU_ReadMem(4 bytes @ 0x400008AC)
T2B6C 055:303.143   Data:  03 00 03 00
T2B6C 055:303.162 - 1.070ms returns 4 (0x4)
T2B6C 055:303.174 JLINK_ReadMemEx(0x400008C0, 0x2C Bytes, Flags = 0x02000004)
T2B6C 055:303.185   CPU_ReadMem(44 bytes @ 0x400008C0)
T2B6C 055:304.613   Data:  00 00 00 00 00 00 00 00 00 00 00 00 00 00 00 00 ...
T2B6C 055:304.632 - 1.463ms returns 44 (0x2C)
T2B6C 055:304.644 JLINK_ReadMemEx(0x400008EC, 0x4 Bytes, Flags = 0x02000004)
T2B6C 055:304.656   CPU_ReadMem(4 bytes @ 0x400008EC)
T2B6C 055:305.737   Data:  00 00 00 00
T2B6C 055:305.771 - 1.131ms returns 4 (0x4)
T2B6C 055:305.783 JLINK_ReadMemEx(0x40000900, 0x2C Bytes, Flags = 0x02000004)
T2B6C 055:305.796   CPU_ReadMem(44 bytes @ 0x40000900)
T2B6C 055:307.025   Data:  00 00 00 00 00 00 00 00 00 00 00 00 00 00 00 00 ...
T2B6C 055:307.044 - 1.265ms returns 44 (0x2C)
T2B6C 055:307.069 JLINK_ReadMemEx(0x4000092C, 0x4 Bytes, Flags = 0x02000004)
T2B6C 055:307.082   CPU_ReadMem(4 bytes @ 0x4000092C)
T2B6C 055:308.218   Data:  00 00 00 00
T2B6C 055:308.235 - 1.169ms returns 4 (0x4)
T2B6C 055:308.927 JLINK_ReadMemEx(0x400468C0, 0x30 Bytes, Flags = 0x02000004)
T2B6C 055:308.945   CPU_ReadMem(48 bytes @ 0x400468C0)
T2B6C 055:309.693   Data:  00 00 00 00 FF FF FF FF 00 00 00 00 00 00 00 00 ...
T2B6C 055:309.723 - 0.801ms returns 48 (0x30)
T2B6C 055:309.735 JLINK_ReadMemEx(0x400468F0, 0x4 Bytes, Flags = 0x02000004)
T2B6C 055:309.747   CPU_ReadMem(4 bytes @ 0x400468F0)
T2B6C 055:310.918   Data:  00 00 00 00
T2B6C 055:310.934 - 1.203ms returns 4 (0x4)
T2B6C 055:311.067 JLINK_ReadMemEx(0x40046000, 0x38 Bytes, Flags = 0x02000004)
T2B6C 055:311.080   CPU_ReadMem(56 bytes @ 0x40046000)
T2B6C 055:312.161   Data:  00 00 00 00 10 27 00 00 00 01 00 00 00 00 00 00 ...
T2B6C 055:312.177 - 1.114ms returns 56 (0x38)
T2B6C 055:312.188 JLINK_ReadMemEx(0x40046038, 0x4 Bytes, Flags = 0x02000004)
T2B6C 055:312.199   CPU_ReadMem(4 bytes @ 0x40046038)
T2B6C 055:313.791   Data:  00 00 00 00
T2B6C 055:313.813 - 1.629ms returns 4 (0x4)
T1D90 055:318.910 JLINK_IsHalted()
T1D90 055:319.524 - 0.639ms returns FALSE
T1D90 055:420.261 JLINK_HasError()
T1D90 055:420.341 JLINK_IsHalted()
T1D90 055:421.090 - 0.772ms returns FALSE
T1D90 055:521.204 JLINK_HasError()
T1D90 055:521.243 JLINK_IsHalted()
T1D90 055:521.911 - 0.688ms returns FALSE
T1D90 055:622.414 JLINK_HasError()
T1D90 055:622.453 JLINK_IsHalted()
T1D90 055:622.999 - 0.567ms returns FALSE
T1D90 055:723.883 JLINK_HasError()
T1D90 055:723.919 JLINK_IsHalted()
T1D90 055:725.016 - 1.122ms returns FALSE
T1D90 055:826.078 JLINK_HasError()
T1D90 055:826.124 JLINK_HasError()
T2B6C 055:826.226 JLINK_ReadMemEx(0x40000800, 0xC Bytes, Flags = 0x02000004)
T2B6C 055:826.249   CPU_ReadMem(12 bytes @ 0x40000800)
T2B6C 055:826.990   Data:  01 00 00 00 02 00 00 00 00 00 00 00
T2B6C 055:827.009 - 0.807ms returns 12 (0xC)
T2B6C 055:827.043 JLINK_ReadMemEx(0x4000080C, 0x4 Bytes, Flags = 0x02000004)
T2B6C 055:827.056   CPU_ReadMem(4 bytes @ 0x4000080C)
T2B6C 055:827.624   Data:  00 00 00 00
T2B6C 055:827.658 - 0.619ms returns 4 (0x4)
T2B6C 055:827.670 JLINK_ReadMemEx(0x4000083C, 0x30 Bytes, Flags = 0x02000004)
T2B6C 055:827.683   CPU_ReadMem(48 bytes @ 0x4000083C)
T2B6C 055:828.438   Data:  00 00 00 00 00 00 00 00 00 00 00 00 00 00 00 00 ...
T2B6C 055:828.469 - 0.821ms returns 48 (0x30)
T2B6C 055:828.501 JLINK_ReadMemEx(0x4000086C, 0x4 Bytes, Flags = 0x02000004)
T2B6C 055:828.516   CPU_ReadMem(4 bytes @ 0x4000086C)
T2B6C 055:829.102   Data:  00 00 00 00
T2B6C 055:829.122 - 0.625ms returns 4 (0x4)
T2B6C 055:829.135 JLINK_ReadMemEx(0x40000880, 0x2C Bytes, Flags = 0x02000004)
T2B6C 055:829.160   CPU_ReadMem(44 bytes @ 0x40000880)
T2B6C 055:829.873   Data:  03 00 01 00 08 09 00 00 08 60 04 40 00 00 00 00 ...
T2B6C 055:829.892 - 0.762ms returns 44 (0x2C)
T2B6C 055:829.906 JLINK_ReadMemEx(0x400008AC, 0x4 Bytes, Flags = 0x02000004)
T2B6C 055:829.918   CPU_ReadMem(4 bytes @ 0x400008AC)
T2B6C 055:830.450   Data:  03 00 03 00
T2B6C 055:830.470 - 0.568ms returns 4 (0x4)
T2B6C 055:830.483 JLINK_ReadMemEx(0x400008C0, 0x2C Bytes, Flags = 0x02000004)
T2B6C 055:830.496   CPU_ReadMem(44 bytes @ 0x400008C0)
T2B6C 055:831.232   Data:  00 00 00 00 00 00 00 00 00 00 00 00 00 00 00 00 ...
T2B6C 055:831.252 - 0.773ms returns 44 (0x2C)
T2B6C 055:831.265 JLINK_ReadMemEx(0x400008EC, 0x4 Bytes, Flags = 0x02000004)
T2B6C 055:831.278   CPU_ReadMem(4 bytes @ 0x400008EC)
T2B6C 055:831.831   Data:  00 00 00 00
T2B6C 055:831.850 - 0.589ms returns 4 (0x4)
T2B6C 055:831.864 JLINK_ReadMemEx(0x40000900, 0x2C Bytes, Flags = 0x02000004)
T2B6C 055:831.876   CPU_ReadMem(44 bytes @ 0x40000900)
T2B6C 055:832.623   Data:  00 00 00 00 00 00 00 00 00 00 00 00 00 00 00 00 ...
T2B6C 055:832.644 - 0.785ms returns 44 (0x2C)
T2B6C 055:832.659 JLINK_ReadMemEx(0x4000092C, 0x4 Bytes, Flags = 0x02000004)
T2B6C 055:832.672   CPU_ReadMem(4 bytes @ 0x4000092C)
T2B6C 055:833.226   Data:  00 00 00 00
T2B6C 055:833.243 - 0.589ms returns 4 (0x4)
T2B6C 055:833.599 JLINK_ReadMemEx(0x400468C0, 0x30 Bytes, Flags = 0x02000004)
T2B6C 055:833.615   CPU_ReadMem(48 bytes @ 0x400468C0)
T2B6C 055:834.487   Data:  00 00 00 00 FF FF FF FF 00 00 00 00 00 00 00 00 ...
T2B6C 055:834.503 - 0.908ms returns 48 (0x30)
T2B6C 055:834.514 JLINK_ReadMemEx(0x400468F0, 0x4 Bytes, Flags = 0x02000004)
T2B6C 055:834.526   CPU_ReadMem(4 bytes @ 0x400468F0)
T2B6C 055:835.053   Data:  00 00 00 00
T2B6C 055:835.070 - 0.561ms returns 4 (0x4)
T2B6C 055:835.216 JLINK_ReadMemEx(0x40046000, 0x38 Bytes, Flags = 0x02000004)
T2B6C 055:835.230   CPU_ReadMem(56 bytes @ 0x40046000)
T2B6C 055:835.969   Data:  00 00 00 00 10 27 00 00 00 01 00 00 00 00 00 00 ...
T2B6C 055:835.986 - 0.775ms returns 56 (0x38)
T2B6C 055:835.998 JLINK_ReadMemEx(0x40046038, 0x4 Bytes, Flags = 0x02000004)
T2B6C 055:836.011   CPU_ReadMem(4 bytes @ 0x40046038)
T2B6C 055:836.566   Data:  00 00 00 00
T2B6C 055:836.588 - 0.594ms returns 4 (0x4)
T1D90 055:841.641 JLINK_IsHalted()
T1D90 055:842.284 - 0.652ms returns FALSE
T1D90 055:943.026 JLINK_HasError()
T1D90 055:943.076 JLINK_IsHalted()
T1D90 055:944.392 - 1.342ms returns FALSE
T1D90 056:044.921 JLINK_HasError()
T1D90 056:044.966 JLINK_IsHalted()
T1D90 056:046.196 - 1.256ms returns FALSE
T1D90 056:146.828 JLINK_HasError()
T1D90 056:146.879 JLINK_IsHalted()
T1D90 056:147.575 - 0.716ms returns FALSE
T1D90 056:248.259 JLINK_HasError()
T1D90 056:248.294 JLINK_IsHalted()
T1D90 056:249.496 - 1.227ms returns FALSE
T1D90 056:350.421 JLINK_HasError()
T1D90 056:350.458 JLINK_HasError()
T2B6C 056:350.573 JLINK_ReadMemEx(0x40000800, 0xC Bytes, Flags = 0x02000004)
T2B6C 056:350.598   CPU_ReadMem(12 bytes @ 0x40000800)
T2B6C 056:351.880   Data:  01 00 00 00 02 00 00 00 00 00 00 00
T2B6C 056:351.916 - 1.347ms returns 12 (0xC)
T2B6C 056:351.933 JLINK_ReadMemEx(0x4000080C, 0x4 Bytes, Flags = 0x02000004)
